<?xml version="1.0" encoding="utf-8"?>
<odoo>
    <data noupdate="0">
        <record id='phoenix_01' model="socket.server.start">
            <field name="code">1001</field>
            <field name="action">打开声音和灯光</field>
            <field name="name">01 06 04 0E 00 03 A9 38</field>
            <field name="type">control</field>
            <field name="note">由系统创建</field>
        </record>
        <record id='phoenix_02' model="socket.server.start">
            <field name="code">1002</field>
            <field name="action">音量调为1级</field>
            <field name="name">01 06 04 0F 00 01 79 39</field>
            <field name="type">control</field>
            <field name="note">由系统创建</field>
        </record>
        <record id='phoenix_03' model="socket.server.start">
            <field name="code">1003</field>
            <field name="action">音量调为30级</field>
            <field name="name">01 06 04 0F 00 1E 38 F1</field>
            <field name="type">control</field>
            <field name="note">由系统创建</field>
        </record>
        <record id='phoenix_04' model="socket.server.start">
            <field name="code">1004</field>
            <field name="action">单曲循环模式</field>
            <field name="name">01 06 04 11 00 01 19 3F</field>
            <field name="type">control</field>
            <field name="note">由系统创建</field>
        </record>
        <record id='phoenix_05' model="socket.server.start">
            <field name="code">1005</field>
            <field name="action">单曲模式</field>
            <field name="name">01 06 04 11 00 02 59 3E</field>
            <field name="type">control</field>
            <field name="note">由系统创建</field>
        </record>
        <record id='phoenix_06' model="socket.server.start">
            <field name="code">1006</field>
            <field name="action">清除告警</field>
            <field name="name">01 06 04 0E 00 00 E9 39</field>
            <field name="type">platform</field>
            <field name="note">由系统创建</field>
        </record>
    </data>
</odoo>
